T0900 000:048.929   SEGGER J-Link V6.86 Log File
T0900 000:049.047   DLL Compiled: Sep 24 2020 17:31:31
T0900 000:049.052   Logging started @ 2021-04-14 03:40
T0900 000:049.057 - 49.059ms
T0900 000:049.068 JLINK_SetWarnOutHandler(...)
T0900 000:049.073 - 0.008ms
T0900 000:049.079 JLINK_OpenEx(...)
T0900 000:050.861   Firmware: J-Link V9 compiled Feb  2 2021 16:34:10
T0900 000:051.242   Decompressing FW timestamp took 299 us
T0900 000:057.299   Hardware: V9.70
T0900 000:057.346   S/N: 59701334
T0900 000:057.363   OEM: SEGGER
T0900 000:057.378   Feature(s): RDI, GDB, FlashDL, FlashBP, JFlash
T0900 000:058.849   TELNET listener socket opened on port 19021
T0900 000:059.164   WEBSRV Starting webserver
T0900 000:059.421   WEBSRV Webserver running on local port 19080
T0900 000:059.432 - 10.355ms returns "O.K."
T0900 000:059.450 JLINK_GetEmuCaps()
T0900 000:059.460 - 0.016ms returns 0xB9FF7BBF
T0900 000:059.481 JLINK_TIF_GetAvailable(...)
T0900 000:059.640 - 0.166ms
T0900 000:059.658 JLINK_SetErrorOutHandler(...)
T0900 000:059.663 - 0.007ms
T0900 000:059.707 JLINK_ExecCommand("ProjectFile = "C:\Users\quocq\ST\BlueNRG-1_2 DK 3.2.1\Project\BLE_Examples\BLE_Chat_Master_Slave\MDK-ARM\BlueNRG-2\JLinkSettings.ini"", ...). 
T0900 000:067.148   Device "BLUENRG2" selected.
T0900 000:067.567 - 7.868ms returns 0x00
T0900 000:067.611 JLINK_ExecCommand("Device = BlueNRG-2", ...). 
T0900 000:068.015   Device "BLUENRG2" selected.
T0900 000:068.405 - 0.795ms returns 0x00
T0900 000:068.430 JLINK_GetHardwareVersion()
T0900 000:068.435 - 0.008ms returns 97000
T0900 000:068.461 JLINK_GetDLLVersion()
T0900 000:068.465 - 0.007ms returns 68600
T0900 000:068.471 JLINK_GetOEMString(...)
T0900 000:068.477 JLINK_GetFirmwareString(...)
T0900 000:068.482 - 0.007ms
T0900 000:068.510 JLINK_GetDLLVersion()
T0900 000:068.515 - 0.007ms returns 68600
T0900 000:068.520 JLINK_GetCompileDateTime()
T0900 000:068.525 - 0.007ms
T0900 000:068.536 JLINK_GetFirmwareString(...)
T0900 000:068.540 - 0.007ms
T0900 000:068.549 JLINK_GetHardwareVersion()
T0900 000:068.554 - 0.007ms returns 97000
T0900 000:068.563 JLINK_GetSN()
T0900 000:068.568 - 0.007ms returns 59701334
T0900 000:068.576 JLINK_GetOEMString(...)
T0900 000:068.586 JLINK_TIF_Select(JLINKARM_TIF_JTAG)
T0900 000:069.458 - 0.894ms returns 0x00
T0900 000:069.489 JLINK_HasError()
T0900 000:069.510 JLINK_SetSpeed(5000)
T0900 000:069.594 - 0.090ms
T0900 000:069.606 JLINK_GetIdData(pIdData)
T0900 000:070.628   TotalIRLen = 8, IRPrint = 0x0011
T0900 000:071.019   JTAG chain detection found 2 devices:
T0900 000:071.053    #0 Id: 0x0BA01477, IRLen: 04, CoreSight JTAG-DP
T0900 000:071.064    #1 Id: 0x0200A041, IRLen: 04, Unknown device
T0900 000:072.585   DPIDR: 0x0BB11477
T0900 000:072.623   Scanning AP map to find all available APs
T0900 000:073.108   AP[1]: Stopped AP scan as end of AP map has been reached
T0900 000:073.124   AP[0]: AHB-AP (IDR: 0x04770021)
T0900 000:073.134   Iterating through AP map to find AHB-AP to use
T0900 000:073.815   AP[0]: Core found
T0900 000:073.831   AP[0]: AHB-AP ROM base: 0xF0000000
T0900 000:074.157   CPUID register: 0x410CC200. Implementer code: 0x41 (ARM)
T0900 000:074.172   Found Cortex-M0 r0p0, Little endian.
T0900 000:074.447   -- Max. mem block: 0x00010C20
T0900 000:074.474   CPU_ReadMem(4 bytes @ 0xE000EDF0)
T0900 000:075.643   CPU_WriteMem(4 bytes @ 0xE000EDF0)
T0900 000:075.985   CPU_ReadMem(4 bytes @ 0xE0002000)
T0900 000:076.366   FPUnit: 4 code (BP) slots and 0 literal slots
T0900 000:076.399   CPU_ReadMem(4 bytes @ 0xE000EDFC)
T0900 000:076.795   CPU_WriteMem(4 bytes @ 0xE000EDFC)
T0900 000:077.035   CPU_ReadMem(4 bytes @ 0xE0001000)
T0900 000:077.292   CPU_WriteMem(4 bytes @ 0xE0001000)
T0900 000:077.548   CoreSight components:
T0900 000:077.563   ROMTbl[0] @ F0000000
T0900 000:077.571   CPU_ReadMem(64 bytes @ 0xF0000000)
T0900 000:078.063   CPU_ReadMem(32 bytes @ 0xD00FFFE0)
T0900 000:078.545   ROMTbl[0][0]: D00FF000, CID: 00000000, PID: 00000000 ???
T0900 000:078.563   CPU_ReadMem(4 bytes @ 0x10040000)
T0900 000:078.880   SetupTarget() start
T0900 000:078.892    J-Link Script File: Executing SetupTarget()
T0900 000:078.920   CPU_ReadMem(1 bytes @ 0x10040000)
T0900 000:079.188   UnSec r0x00000000
T0900 000:179.359   UnSec v0x00000000
T0900 000:279.862   SetupTarget() end
T0900 000:279.962   pIdData->ScanLen=8
T0900 000:279.979   
T0900 000:279.989   pIdData->NumDevices=2
T0900 000:280.003   
T0900 000:280.013   pIdData->aId[0]=0x0BA01477
T0900 000:280.027   
T0900 000:280.037   pIdData->aIrRead[0]=0
T0900 000:280.051   
T0900 000:280.061   pIdData->aScanLen[0]=0
T0900 000:280.075   
T0900 000:280.085   pIdData->aScanRead[0]=0
T0900 000:280.099   
T0900 000:280.109 - 210.507ms
T0900 000:280.142 JLINK_JTAG_GetDeviceID(DeviceIndex = 0)
T0900 000:280.156 - 0.019ms returns 195040375
T0900 000:280.317 JLINK_JTAG_GetDeviceInfo(DeviceIndex = 0)
T0900 000:280.344 - 0.032ms returns 0
T0900 000:280.358 JLINK_JTAG_GetDeviceID(DeviceIndex = 1)
T0900 000:280.368 - 0.015ms returns 33595457
T0900 000:280.380 JLINK_JTAG_GetDeviceInfo(DeviceIndex = 1)
T0900 000:280.391 - 0.015ms returns 1
T0900 000:280.405 JLINK_GetDLLVersion()
T0900 000:280.415 - 0.015ms returns 68600
T0900 000:280.427 JLINK_CORE_GetFound()
T0900 000:280.437 - 0.015ms returns 0x60000FF
T0900 000:280.449 JLINK_GetDebugInfo(0x100 = JLINKARM_ROM_TABLE_ADDR_INDEX)
T0900 000:280.462   Value=0xF0000000
T0900 000:280.477 - 0.032ms returns 0
T0900 000:280.508 JLINK_GetDebugInfo(0x100 = JLINKARM_ROM_TABLE_ADDR_INDEX)
T0900 000:280.519   Value=0xF0000000
T0900 000:280.533 - 0.030ms returns 0
T0900 000:280.545 JLINK_GetDebugInfo(0x101 = JLINKARM_DEBUG_INFO_ETM_ADDR_INDEX)
T0900 000:280.556   Value=0x00000000
T0900 000:280.570 - 0.029ms returns 0
T0900 000:280.597 JLINK_ReadMemEx(0xE0041FF0, 0x10 Bytes, Flags = 0x02000004)
T0900 000:280.635   CPU_ReadMem(16 bytes @ 0xE0041FF0)
T0900 000:281.049   Data:  00 00 00 00 00 00 00 00 00 00 00 00 00 00 00 00
T0900 000:281.076 - 0.484ms returns 16 (0x10)
T0900 000:281.093 JLINK_GetDebugInfo(0x102 = JLINKARM_DEBUG_INFO_MTB_ADDR_INDEX)
T0900 000:281.105   Value=0x00000000
T0900 000:281.119 - 0.031ms returns 0
T0900 000:281.131 JLINK_GetDebugInfo(0x103 = JLINKARM_DEBUG_INFO_TPIU_ADDR_INDEX)
T0900 000:281.142   Value=0x00000000
T0900 000:281.156 - 0.029ms returns 0
T0900 000:281.168 JLINK_ReadMemEx(0xE0040FF0, 0x10 Bytes, Flags = 0x02000004)
T0900 000:281.187   CPU_ReadMem(16 bytes @ 0xE0040FF0)
T0900 000:281.556   Data:  00 00 00 00 00 00 00 00 00 00 00 00 00 00 00 00
T0900 000:281.583 - 0.421ms returns 16 (0x10)
T0900 000:281.600 JLINK_GetDebugInfo(0x104 = JLINKARM_DEBUG_INFO_ITM_ADDR_INDEX)
T0900 000:281.612   Value=0xE0000000
T0900 000:281.627 - 0.031ms returns 0
T0900 000:281.639 JLINK_GetDebugInfo(0x105 = JLINKARM_DEBUG_INFO_DWT_ADDR_INDEX)
T0900 000:281.650   Value=0xE0001000
T0900 000:281.664 - 0.029ms returns 0
T0900 000:281.675 JLINK_GetDebugInfo(0x106 = JLINKARM_DEBUG_INFO_FPB_ADDR_INDEX)
T0900 000:281.686   Value=0xE0002000
T0900 000:281.700 - 0.029ms returns 0
T0900 000:281.712 JLINK_GetDebugInfo(0x107 = JLINKARM_DEBUG_INFO_NVIC_ADDR_INDEX)
T0900 000:281.722   Value=0xE000E000
T0900 000:281.737 - 0.029ms returns 0
T0900 000:281.748 JLINK_GetDebugInfo(0x10C = JLINKARM_DEBUG_INFO_DBG_ADDR_INDEX)
T0900 000:281.753   Value=0xE000EDF0
T0900 000:281.759 - 0.013ms returns 0
T0900 000:281.764 JLINK_GetDebugInfo(0x01 = Unknown)
T0900 000:281.769   Value=0x00000000
T0900 000:281.781 - 0.018ms returns 0
T0900 000:281.787 JLINK_ReadMemU32(0xE000ED00, 0x1 Items)
T0900 000:281.796   CPU_ReadMem(4 bytes @ 0xE000ED00)
T0900 000:282.142   Data:  00 C2 0C 41
T0900 000:282.159   Debug reg: CPUID
T0900 000:282.166 - 0.381ms returns 1 (0x1)
T0900 000:282.173 JLINK_GetDebugInfo(0x10F = JLINKARM_DEBUG_INFO_HAS_CORTEX_M_SECURITY_EXT_INDEX)
T0900 000:282.179   Value=0x00000000
T0900 000:282.185 - 0.014ms returns 0
T0900 000:282.191 JLINK_HasError()
T0900 000:282.197 JLINK_SetResetType(JLINKARM_CM3_RESET_TYPE_NORMAL)
T0900 000:282.201 - 0.007ms returns JLINKARM_CM3_RESET_TYPE_NORMAL
T0900 000:282.210 JLINK_Reset()
T0900 000:282.244   ResetTarget() start
T0900 000:282.251    J-Link Script File: Executing ResetTarget()
T0900 000:282.259   Executing ResetTarget()
T0900 000:282.268   CPU_ReadMem(4 bytes @ 0xE0002000)
T0900 000:282.616   CPU_ReadMem(4 bytes @ 0xE0002008)
T0900 000:282.907   CPU_ReadMem(4 bytes @ 0x10040004)
T0900 000:283.184   CPU is running
T0900 000:283.197   CPU_WriteMem(4 bytes @ 0xE0002000)
T0900 000:283.461   CPU is running
T0900 000:283.472   CPU_WriteMem(4 bytes @ 0xE0002008)
T0900 000:283.695   CPU is running
T0900 000:283.707   CPU_WriteMem(4 bytes @ 0xE000ED0C)
T0900 000:387.422   CPU_WriteMem(4 bytes @ 0xE0002008)
T0900 000:387.739   CPU_WriteMem(4 bytes @ 0xE0002000)
T0900 000:388.069   ResetTarget() end
T0900 000:389.834   CPU_WriteMem(4 bytes @ 0xE0002000)
T0900 000:390.112   CPU_ReadMem(4 bytes @ 0xE000EDFC)
T0900 000:390.407   CPU_ReadMem(4 bytes @ 0xE0001000)
T0900 000:390.712   CPU_WriteMem(4 bytes @ 0xE0001000)
T0900 000:390.998 - 108.796ms
T0900 000:391.027 JLINK_HasError()
T0900 000:391.035 JLINK_ReadReg(R15 (PC))
T0900 000:391.061 - 0.034ms returns 0x1004A390
T0900 000:391.087 JLINK_ReadReg(XPSR)
T0900 000:391.101 - 0.021ms returns 0x21000000
T0900 000:391.122 JLINK_Halt()
T0900 000:391.135 - 0.019ms returns 0x00
T0900 000:391.155 JLINK_ReadMemU32(0xE000EDF0, 0x1 Items)
T0900 000:391.178   CPU_ReadMem(4 bytes @ 0xE000EDF0)
T0900 000:391.643   Data:  03 00 03 00
T0900 000:391.680   Debug reg: DHCSR
T0900 000:391.699 - 0.551ms returns 1 (0x1)
T0900 000:391.730 JLINK_WriteU32_64(0xE000EDF0, 0xA05F0003)
T0900 000:391.746   Debug reg: DHCSR
T0900 000:391.804   CPU_WriteMem(4 bytes @ 0xE000EDF0)
T0900 000:392.158 - 0.437ms returns 0 (0x00000000)
T0900 000:392.176 JLINK_WriteU32_64(0xE000EDFC, 0x01000000)
T0900 000:392.181   Debug reg: DEMCR
T0900 000:392.193   CPU_WriteMem(4 bytes @ 0xE000EDFC)
T0900 000:392.483 - 0.315ms returns 0 (0x00000000)
T0900 000:392.559 JLINK_GetHWStatus(...)
T0900 000:392.713 - 0.162ms returns 0
T0900 000:392.743 JLINK_GetNumBPUnits(Type = 0xFFFFFF00)
T0900 000:392.749 - 0.008ms returns 0x04
T0900 000:392.755 JLINK_GetNumBPUnits(Type = 0xF0)
T0900 000:392.759 - 0.007ms returns 0x2000
T0900 000:392.765 JLINK_GetNumWPUnits()
T0900 000:392.769 - 0.010ms returns 2
T0900 000:392.795 JLINK_GetSpeed()
T0900 000:392.800 - 0.007ms returns 5000
T0900 000:392.809 JLINK_ReadMemU32(0xE000E004, 0x1 Items)
T0900 000:392.818   CPU_ReadMem(4 bytes @ 0xE000E004)
T0900 000:393.124   Data:  00 00 00 00
T0900 000:393.136 - 0.329ms returns 1 (0x1)
T0900 000:393.151 JLINK_HasError()
T0900 000:393.157 JLINK_ReadReg(R15 (PC))
T0900 000:393.165 - 0.009ms returns 0x1004A390
T0900 000:393.170 JLINK_ReadReg(XPSR)
T0900 000:393.175 - 0.007ms returns 0x21000000
T0900 000:480.459 JLINK_HasError()
T0900 000:480.493 JLINK_SetResetType(JLINKARM_CM3_RESET_TYPE_NORMAL)
T0900 000:480.499 - 0.008ms returns JLINKARM_CM3_RESET_TYPE_NORMAL
T0900 000:480.505 JLINK_Reset()
T0900 000:480.531   ResetTarget() start
T0900 000:480.538    J-Link Script File: Executing ResetTarget()
T0900 000:480.547   Executing ResetTarget()
T0900 000:480.559   CPU_ReadMem(4 bytes @ 0xE0002000)
T0900 000:480.944   CPU_ReadMem(4 bytes @ 0xE0002008)
T0900 000:481.309   CPU_ReadMem(64 bytes @ 0x10040000)
T0900 000:481.895    -- Updating C cache (64 bytes @ 0x10040000)
T0900 000:481.911    -- Read from C cache (4 bytes @ 0x10040004)
T0900 000:481.922   CPU_WriteMem(4 bytes @ 0xE0002000)
T0900 000:482.225   CPU_WriteMem(4 bytes @ 0xE0002008)
T0900 000:482.498   CPU_WriteMem(4 bytes @ 0xE000ED0C)
T0900 000:584.352   CPU_WriteMem(4 bytes @ 0xE0002008)
T0900 000:584.826   CPU_WriteMem(4 bytes @ 0xE0002000)
T0900 000:585.306   ResetTarget() end
T0900 000:587.287   CPU_WriteMem(4 bytes @ 0xE0002000)
T0900 000:587.563   CPU_ReadMem(4 bytes @ 0xE000EDFC)
T0900 000:587.871   CPU_ReadMem(4 bytes @ 0xE0001000)
T0900 000:588.186   CPU_WriteMem(4 bytes @ 0xE0001000)
T0900 000:588.560 - 108.077ms
T0900 000:588.729 JLINK_HasError()
T0900 000:588.756 JLINK_ReadReg(R15 (PC))
T0900 000:588.795 - 0.046ms returns 0x1004A390
T0900 000:588.813 JLINK_ReadReg(XPSR)
T0900 000:588.827 - 0.021ms returns 0x21000000
T0900 000:588.901 JLINK_HasError()
T0900 000:588.918 JLINK_ReadReg(R0)
T0900 000:588.932 - 0.021ms returns 0x20006000
T0900 000:588.948 JLINK_ReadReg(R1)
T0900 000:588.961 - 0.020ms returns 0x00000008
T0900 000:588.977 JLINK_ReadReg(R2)
T0900 000:588.991 - 0.020ms returns 0x40100004
T0900 000:589.006 JLINK_ReadReg(R3)
T0900 000:589.020 - 0.020ms returns 0xFFFFFFFF
T0900 000:589.035 JLINK_ReadReg(R4)
T0900 000:589.049 - 0.020ms returns 0x1004A391
T0900 000:589.065 JLINK_HasError()
T0900 001:818.139 JLINK_ReadMemEx(0x1004A390, 0x3C Bytes, Flags = 0x02000000)
T0900 001:818.186   CPU_ReadMem(128 bytes @ 0x1004A380)
T0900 001:819.019    -- Updating C cache (128 bytes @ 0x1004A380)
T0900 001:819.045    -- Read from C cache (60 bytes @ 0x1004A390)
T0900 001:819.055   Data:  02 F0 4E FE 01 28 05 D0 04 48 80 F3 08 88 09 F0 ...
T0900 001:819.062 - 0.926ms returns 60 (0x3C)
T0900 001:819.073 JLINK_ReadMemEx(0x1004A390, 0x2 Bytes, Flags = 0x02000000)
T0900 001:819.082    -- Read from C cache (2 bytes @ 0x1004A390)
T0900 001:819.088   Data:  02 F0
T0900 001:819.095 - 0.024ms returns 2 (0x2)
T0900 001:819.159 JLINK_ReadMemEx(0x1004A392, 0x2 Bytes, Flags = 0x02000000)
T0900 001:819.165    -- Read from C cache (2 bytes @ 0x1004A392)
T0900 001:819.172   Data:  4E FE
T0900 001:819.178 - 0.021ms returns 2 (0x2)
T0900 001:819.243 JLINK_ReadMemEx(0x1004A394, 0x3C Bytes, Flags = 0x02000000)
T0900 001:819.248    -- Read from C cache (60 bytes @ 0x1004A394)
T0900 001:819.256   Data:  01 28 05 D0 04 48 80 F3 08 88 09 F0 EB FA FE E7 ...
T0900 001:819.263 - 0.024ms returns 60 (0x3C)
T0900 001:819.271 JLINK_ReadMemEx(0x1004A394, 0x2 Bytes, Flags = 0x02000000)
T0900 001:819.282    -- Read from C cache (2 bytes @ 0x1004A394)
T0900 001:819.292   Data:  01 28
T0900 001:819.301 - 0.033ms returns 2 (0x2)
T0900 001:819.309 JLINK_ReadMemEx(0x1004A396, 0x2 Bytes, Flags = 0x02000000)
T0900 001:819.315    -- Read from C cache (2 bytes @ 0x1004A396)
T0900 001:819.324   Data:  05 D0
T0900 001:819.332 - 0.026ms returns 2 (0x2)
T2A08 002:178.829 JLINK_ReadMemEx(0x1004A390, 0x2 Bytes, Flags = 0x02000000)
T2A08 002:178.866    -- Read from C cache (2 bytes @ 0x1004A390)
T2A08 002:178.874   Data:  02 F0
T2A08 002:178.883 - 0.065ms returns 2 (0x2)
T2A08 002:178.889 JLINK_HasError()
T2A08 002:178.898 JLINK_SetBPEx(Addr = 0x10053978, Type = 0xFFFFFFF2)
T2A08 002:178.910 - 0.014ms returns 0x00000001
T2A08 002:178.916 JLINK_HasError()
T2A08 002:178.922 JLINK_HasError()
T2A08 002:178.928 JLINK_Go()
T2A08 002:179.314   CPU_ReadMem(4 bytes @ 0xE0001000)
T2A08 002:179.675   CPU_WriteMem(4 bytes @ 0xE0001000)
T2A08 002:179.691   CPU_WriteMem(4 bytes @ 0xE0002008)
T2A08 002:179.699   CPU_WriteMem(4 bytes @ 0xE000200C)
T2A08 002:179.706   CPU_WriteMem(4 bytes @ 0xE0002010)
T2A08 002:179.713   CPU_WriteMem(4 bytes @ 0xE0002014)
T2A08 002:180.557   CPU_WriteMem(4 bytes @ 0xE0001004)
T2A08 002:181.233 - 2.317ms
T2A08 002:281.332 JLINK_HasError()
T2A08 002:281.362 JLINK_IsHalted()
T2A08 002:283.327 - 2.006ms returns TRUE
T2A08 002:283.397 JLINK_HasError()
T2A08 002:283.544 JLINK_Halt()
T2A08 002:283.578 - 0.042ms returns 0x00
T2A08 002:283.596 JLINK_IsHalted()
T2A08 002:283.611 - 0.021ms returns TRUE
T2A08 002:283.627 JLINK_IsHalted()
T2A08 002:283.641 - 0.020ms returns TRUE
T2A08 002:283.656 JLINK_IsHalted()
T2A08 002:283.670 - 0.020ms returns TRUE
T2A08 002:283.687 JLINK_HasError()
T2A08 002:283.698 JLINK_ReadReg(R15 (PC))
T2A08 002:283.708 - 0.012ms returns 0x10053978
T2A08 002:283.714 JLINK_ReadReg(XPSR)
T2A08 002:283.719 - 0.007ms returns 0x61000000
T2A08 002:283.729 JLINK_HasError()
T2A08 002:283.735 JLINK_ClrBPEx(BPHandle = 0x00000001)
T2A08 002:283.741 - 0.008ms returns 0x00
T2A08 002:283.746 JLINK_HasError()
T2A08 002:283.752 JLINK_HasError()
T2A08 002:283.757 JLINK_ReadMemU32(0xE000ED30, 0x1 Items)
T2A08 002:283.769   CPU_ReadMem(4 bytes @ 0xE000ED30)
T2A08 002:284.118   Data:  02 00 00 00
T2A08 002:284.132 - 0.376ms returns 1 (0x1)
T2A08 002:284.139 JLINK_ReadMemU32(0xE0001028, 0x1 Items)
T2A08 002:284.149   CPU_ReadMem(4 bytes @ 0xE0001028)
T2A08 002:284.422   Data:  00 00 00 00
T2A08 002:284.436   Debug reg: DWT_FUNC[0]
T2A08 002:284.443 - 0.305ms returns 1 (0x1)
T2A08 002:284.450 JLINK_ReadMemU32(0xE0001038, 0x1 Items)
T2A08 002:284.459   CPU_ReadMem(4 bytes @ 0xE0001038)
T2A08 002:284.728   Data:  00 00 00 00
T2A08 002:284.741   Debug reg: DWT_FUNC[1]
T2A08 002:284.749 - 0.300ms returns 1 (0x1)
T2A08 002:284.826 JLINK_HasError()
T2A08 002:284.833 JLINK_ReadReg(R0)
T2A08 002:284.840 - 0.009ms returns 0x10053979
T2A08 002:284.846 JLINK_ReadReg(R1)
T2A08 002:284.851 - 0.007ms returns 0x20000630
T2A08 002:284.857 JLINK_ReadReg(R2)
T2A08 002:284.862 - 0.007ms returns 0x00000000
T2A08 002:284.867 JLINK_ReadReg(R3)
T2A08 002:284.872 - 0.007ms returns 0x1004D101
T2A08 002:284.878 JLINK_ReadReg(R4)
T2A08 002:284.883 - 0.007ms returns 0x1005739C
T2A08 002:284.888 JLINK_ReadReg(R5)
T2A08 002:284.893 - 0.007ms returns 0x00000001
T2A08 002:284.898 JLINK_ReadReg(R6)
T2A08 002:284.903 - 0.007ms returns 0x1005739C
T2A08 002:284.909 JLINK_ReadReg(R7)
T2A08 002:284.914 - 0.007ms returns 0xFFFFFFFF
T2A08 002:284.920 JLINK_ReadReg(R8)
T2A08 002:284.943 - 0.026ms returns 0xFFFFFFFF
T2A08 002:284.949 JLINK_ReadReg(R9)
T2A08 002:284.954 - 0.007ms returns 0xFFFFFFFF
T2A08 002:284.960 JLINK_ReadReg(R10)
T2A08 002:284.965 - 0.007ms returns 0xFFFFFFFF
T2A08 002:284.970 JLINK_ReadReg(R11)
T2A08 002:284.975 - 0.007ms returns 0xFFFFFFFF
T2A08 002:284.981 JLINK_ReadReg(R12)
T2A08 002:284.986 - 0.007ms returns 0xFFFFFFFF
T2A08 002:284.991 JLINK_ReadReg(R13 (SP))
T2A08 002:284.997 - 0.007ms returns 0x20006000
T2A08 002:285.002 JLINK_ReadReg(R14)
T2A08 002:285.007 - 0.007ms returns 0x100402D5
T2A08 002:285.013 JLINK_ReadReg(R15 (PC))
T2A08 002:285.018 - 0.007ms returns 0x10053978
T2A08 002:285.024 JLINK_ReadReg(XPSR)
T2A08 002:285.029 - 0.007ms returns 0x61000000
T2A08 002:285.034 JLINK_ReadReg(MSP)
T2A08 002:285.039 - 0.007ms returns 0x20006000
T2A08 002:285.045 JLINK_ReadReg(PSP)
T2A08 002:285.050 - 0.007ms returns 0xFFFFFFFC
T2A08 002:285.055 JLINK_ReadReg(CFBP)
T2A08 002:285.060 - 0.007ms returns 0x00000001
T0900 002:289.980 JLINK_HasError()
T0900 002:294.093 JLINK_ReadMemEx(0x10053978, 0x3C Bytes, Flags = 0x02000000)
T0900 002:294.143   CPU_ReadMem(128 bytes @ 0x10053940)
T0900 002:294.957    -- Updating C cache (128 bytes @ 0x10053940)
T0900 002:294.970    -- Read from C cache (60 bytes @ 0x10053978)
T0900 002:294.978   Data:  F8 F7 9A FD F8 F7 9A FB EE F7 D6 FA 0F 48 F8 F7 ...
T0900 002:294.985 - 0.894ms returns 60 (0x3C)
T0900 002:294.993 JLINK_ReadMemEx(0x10053978, 0x2 Bytes, Flags = 0x02000000)
T0900 002:295.000    -- Read from C cache (2 bytes @ 0x10053978)
T0900 002:295.007   Data:  F8 F7
T0900 002:295.014 - 0.023ms returns 2 (0x2)
T0900 002:295.086 JLINK_ReadMemEx(0x1005397A, 0x2 Bytes, Flags = 0x02000000)
T0900 002:295.092    -- Read from C cache (2 bytes @ 0x1005397A)
T0900 002:295.099   Data:  9A FD
T0900 002:295.106 - 0.022ms returns 2 (0x2)
T2A08 022:820.857 JLINK_ReadMemEx(0x10053978, 0x2 Bytes, Flags = 0x02000000)
T2A08 022:820.897    -- Read from C cache (2 bytes @ 0x10053978)
T2A08 022:820.905   Data:  F8 F7
T2A08 022:820.912 - 0.057ms returns 2 (0x2)
T2A08 022:820.919 JLINK_HasError()
T2A08 022:820.927 JLINK_SetBPEx(Addr = 0x1005397C, Type = 0xFFFFFFF2)
T2A08 022:820.937 - 0.012ms returns 0x00000002
T2A08 022:820.943 JLINK_HasError()
T2A08 022:820.948 JLINK_HasError()
T2A08 022:820.954 JLINK_Go()
T2A08 022:821.281   CPU_ReadMem(4 bytes @ 0xE0001000)
T2A08 022:821.619   CPU_WriteMem(4 bytes @ 0xE0001000)
T2A08 022:821.634   CPU_WriteMem(4 bytes @ 0xE0002008)
T2A08 022:822.474 - 1.544ms
T2A08 022:923.190 JLINK_HasError()
T2A08 022:923.229 JLINK_IsHalted()
T2A08 022:925.215 - 2.005ms returns TRUE
T2A08 022:925.242 JLINK_HasError()
T2A08 022:925.249 JLINK_Halt()
T2A08 022:925.254 - 0.011ms returns 0x00
T2A08 022:925.266 JLINK_IsHalted()
T2A08 022:925.270 - 0.007ms returns TRUE
T2A08 022:925.276 JLINK_IsHalted()
T2A08 022:925.280 - 0.006ms returns TRUE
T2A08 022:925.286 JLINK_IsHalted()
T2A08 022:925.290 - 0.006ms returns TRUE
T2A08 022:925.296 JLINK_HasError()
T2A08 022:925.302 JLINK_ReadReg(R15 (PC))
T2A08 022:925.310 - 0.010ms returns 0x1005397C
T2A08 022:925.315 JLINK_ReadReg(XPSR)
T2A08 022:925.320 - 0.007ms returns 0x21000000
T2A08 022:925.330 JLINK_HasError()
T2A08 022:925.335 JLINK_ClrBPEx(BPHandle = 0x00000002)
T2A08 022:925.341 - 0.007ms returns 0x00
T2A08 022:925.346 JLINK_HasError()
T2A08 022:925.351 JLINK_HasError()
T2A08 022:925.357 JLINK_ReadMemU32(0xE000ED30, 0x1 Items)
T2A08 022:925.367   CPU_ReadMem(4 bytes @ 0xE000ED30)
T2A08 022:925.713   Data:  02 00 00 00
T2A08 022:925.726 - 0.372ms returns 1 (0x1)
T2A08 022:925.734 JLINK_ReadMemU32(0xE0001028, 0x1 Items)
T2A08 022:925.743   CPU_ReadMem(4 bytes @ 0xE0001028)
T2A08 022:926.071   Data:  00 00 00 00
T2A08 022:926.084   Debug reg: DWT_FUNC[0]
T2A08 022:926.091 - 0.359ms returns 1 (0x1)
T2A08 022:926.099 JLINK_ReadMemU32(0xE0001038, 0x1 Items)
T2A08 022:926.108   CPU_ReadMem(4 bytes @ 0xE0001038)
T2A08 022:926.450   Data:  00 00 00 00
T2A08 022:926.463   Debug reg: DWT_FUNC[1]
T2A08 022:926.470 - 0.373ms returns 1 (0x1)
T2A08 022:926.611 JLINK_HasError()
T2A08 022:926.625 JLINK_ReadReg(R0)
T2A08 022:926.632 - 0.010ms returns 0x000E0066
T2A08 022:926.638 JLINK_ReadReg(R1)
T2A08 022:926.643 - 0.007ms returns 0x40900000
T2A08 022:926.649 JLINK_ReadReg(R2)
T2A08 022:926.654 - 0.007ms returns 0x00000000
T2A08 022:926.659 JLINK_ReadReg(R3)
T2A08 022:926.664 - 0.007ms returns 0x0000001B
T2A08 022:926.670 JLINK_ReadReg(R4)
T2A08 022:926.674 - 0.007ms returns 0x1005739C
T2A08 022:926.680 JLINK_ReadReg(R5)
T2A08 022:926.685 - 0.007ms returns 0x00000001
T2A08 022:926.690 JLINK_ReadReg(R6)
T2A08 022:926.695 - 0.007ms returns 0x1005739C
T2A08 022:926.700 JLINK_ReadReg(R7)
T2A08 022:926.705 - 0.007ms returns 0xFFFFFFFF
T2A08 022:926.710 JLINK_ReadReg(R8)
T2A08 022:926.715 - 0.007ms returns 0xFFFFFFFF
T2A08 022:926.721 JLINK_ReadReg(R9)
T2A08 022:926.725 - 0.007ms returns 0xFFFFFFFF
T2A08 022:926.731 JLINK_ReadReg(R10)
T2A08 022:926.735 - 0.007ms returns 0xFFFFFFFF
T2A08 022:926.741 JLINK_ReadReg(R11)
T2A08 022:926.746 - 0.007ms returns 0xFFFFFFFF
T2A08 022:926.751 JLINK_ReadReg(R12)
T2A08 022:926.756 - 0.007ms returns 0xFFFFFFFF
T2A08 022:926.761 JLINK_ReadReg(R13 (SP))
T2A08 022:926.766 - 0.007ms returns 0x20006000
T2A08 022:926.772 JLINK_ReadReg(R14)
T2A08 022:926.776 - 0.007ms returns 0x1004249B
T2A08 022:926.782 JLINK_ReadReg(R15 (PC))
T2A08 022:926.787 - 0.007ms returns 0x1005397C
T2A08 022:926.792 JLINK_ReadReg(XPSR)
T2A08 022:926.797 - 0.007ms returns 0x21000000
T2A08 022:926.802 JLINK_ReadReg(MSP)
T2A08 022:926.807 - 0.007ms returns 0x20006000
T2A08 022:926.812 JLINK_ReadReg(PSP)
T2A08 022:926.817 - 0.007ms returns 0xFFFFFFFC
T2A08 022:926.822 JLINK_ReadReg(CFBP)
T2A08 022:926.827 - 0.007ms returns 0x00000000
T0900 022:927.116 JLINK_HasError()
T0900 022:930.035 JLINK_ReadMemEx(0x1005397C, 0x3C Bytes, Flags = 0x02000000)
T0900 022:930.066   CPU_ReadMem(128 bytes @ 0x10053940)
T0900 022:930.911    -- Updating C cache (128 bytes @ 0x10053940)
T0900 022:930.924    -- Read from C cache (60 bytes @ 0x1005397C)
T0900 022:930.933   Data:  F8 F7 9A FB EE F7 D6 FA 0F 48 F8 F7 FF FA 0F 48 ...
T0900 022:930.939 - 0.906ms returns 60 (0x3C)
T0900 022:930.947 JLINK_ReadMemEx(0x1005397C, 0x2 Bytes, Flags = 0x02000000)
T0900 022:930.953    -- Read from C cache (2 bytes @ 0x1005397C)
T0900 022:930.960   Data:  F8 F7
T0900 022:930.966 - 0.021ms returns 2 (0x2)
T0900 022:930.973 JLINK_ReadMemEx(0x1005397E, 0x2 Bytes, Flags = 0x02000000)
T0900 022:930.978    -- Read from C cache (2 bytes @ 0x1005397E)
T0900 022:930.989   Data:  9A FB
T0900 022:930.996 - 0.026ms returns 2 (0x2)
T2A08 023:694.300 JLINK_ReadMemEx(0x1005397C, 0x2 Bytes, Flags = 0x02000000)
T2A08 023:694.335    -- Read from C cache (2 bytes @ 0x1005397C)
T2A08 023:694.350   Data:  F8 F7
T2A08 023:694.358 - 0.060ms returns 2 (0x2)
T2A08 023:694.364 JLINK_HasError()
T2A08 023:694.372 JLINK_SetBPEx(Addr = 0x10053980, Type = 0xFFFFFFF2)
T2A08 023:694.383 - 0.013ms returns 0x00000003
T2A08 023:694.389 JLINK_HasError()
T2A08 023:694.395 JLINK_HasError()
T2A08 023:694.400 JLINK_Go()
T2A08 023:694.705   CPU_ReadMem(4 bytes @ 0xE0001000)
T2A08 023:695.016   CPU_WriteMem(4 bytes @ 0xE0001000)
T2A08 023:695.034   CPU_WriteMem(4 bytes @ 0xE0002008)
T2A08 023:695.812 - 1.422ms
T2A08 023:796.015 JLINK_HasError()
T2A08 023:796.040 JLINK_IsHalted()
T2A08 023:798.001 - 1.976ms returns TRUE
T2A08 023:798.023 JLINK_HasError()
T2A08 023:798.029 JLINK_Halt()
T2A08 023:798.034 - 0.007ms returns 0x00
T2A08 023:798.040 JLINK_IsHalted()
T2A08 023:798.044 - 0.007ms returns TRUE
T2A08 023:798.050 JLINK_IsHalted()
T2A08 023:798.055 - 0.006ms returns TRUE
T2A08 023:798.060 JLINK_IsHalted()
T2A08 023:798.064 - 0.007ms returns TRUE
T2A08 023:798.071 JLINK_HasError()
T2A08 023:798.077 JLINK_ReadReg(R15 (PC))
T2A08 023:798.084 - 0.010ms returns 0x10053980
T2A08 023:798.090 JLINK_ReadReg(XPSR)
T2A08 023:798.095 - 0.007ms returns 0x21000000
T2A08 023:798.104 JLINK_HasError()
T2A08 023:798.110 JLINK_ClrBPEx(BPHandle = 0x00000003)
T2A08 023:798.115 - 0.007ms returns 0x00
T2A08 023:798.120 JLINK_HasError()
T2A08 023:798.126 JLINK_HasError()
T2A08 023:798.131 JLINK_ReadMemU32(0xE000ED30, 0x1 Items)
T2A08 023:798.141   CPU_ReadMem(4 bytes @ 0xE000ED30)
T2A08 023:798.511   Data:  02 00 00 00
T2A08 023:798.524 - 0.395ms returns 1 (0x1)
T2A08 023:798.532 JLINK_ReadMemU32(0xE0001028, 0x1 Items)
T2A08 023:798.541   CPU_ReadMem(4 bytes @ 0xE0001028)
T2A08 023:798.865   Data:  00 00 00 00
T2A08 023:798.879   Debug reg: DWT_FUNC[0]
T2A08 023:798.885 - 0.356ms returns 1 (0x1)
T2A08 023:798.893 JLINK_ReadMemU32(0xE0001038, 0x1 Items)
T2A08 023:798.902   CPU_ReadMem(4 bytes @ 0xE0001038)
T2A08 023:799.197   Data:  00 00 00 00
T2A08 023:799.211   Debug reg: DWT_FUNC[1]
T2A08 023:799.217 - 0.327ms returns 1 (0x1)
T2A08 023:799.370 JLINK_HasError()
T2A08 023:799.383 JLINK_ReadReg(R0)
T2A08 023:799.390 - 0.010ms returns 0x00000001
T2A08 023:799.396 JLINK_ReadReg(R1)
T2A08 023:799.401 - 0.007ms returns 0x200002E4
T2A08 023:799.407 JLINK_ReadReg(R2)
T2A08 023:799.412 - 0.007ms returns 0x00000000
T2A08 023:799.417 JLINK_ReadReg(R3)
T2A08 023:799.422 - 0.007ms returns 0x0000001B
T2A08 023:799.427 JLINK_ReadReg(R4)
T2A08 023:799.432 - 0.007ms returns 0x1005739C
T2A08 023:799.438 JLINK_ReadReg(R5)
T2A08 023:799.442 - 0.007ms returns 0x00000001
T2A08 023:799.448 JLINK_ReadReg(R6)
T2A08 023:799.453 - 0.007ms returns 0x1005739C
T2A08 023:799.458 JLINK_ReadReg(R7)
T2A08 023:799.463 - 0.007ms returns 0xFFFFFFFF
T2A08 023:799.468 JLINK_ReadReg(R8)
T2A08 023:799.473 - 0.007ms returns 0xFFFFFFFF
T2A08 023:799.479 JLINK_ReadReg(R9)
T2A08 023:799.483 - 0.007ms returns 0xFFFFFFFF
T2A08 023:799.493 JLINK_ReadReg(R10)
T2A08 023:799.498 - 0.007ms returns 0xFFFFFFFF
T2A08 023:799.503 JLINK_ReadReg(R11)
T2A08 023:799.508 - 0.007ms returns 0xFFFFFFFF
T2A08 023:799.513 JLINK_ReadReg(R12)
T2A08 023:799.525 - 0.014ms returns 0xFFFFFFFF
T2A08 023:799.531 JLINK_ReadReg(R13 (SP))
T2A08 023:799.536 - 0.007ms returns 0x20006000
T2A08 023:799.542 JLINK_ReadReg(R14)
T2A08 023:799.547 - 0.007ms returns 0x10053981
T2A08 023:799.552 JLINK_ReadReg(R15 (PC))
T2A08 023:799.557 - 0.007ms returns 0x10053980
T2A08 023:799.562 JLINK_ReadReg(XPSR)
T2A08 023:799.567 - 0.007ms returns 0x21000000
T2A08 023:799.572 JLINK_ReadReg(MSP)
T2A08 023:799.577 - 0.007ms returns 0x20006000
T2A08 023:799.583 JLINK_ReadReg(PSP)
T2A08 023:799.587 - 0.007ms returns 0xFFFFFFFC
T2A08 023:799.593 JLINK_ReadReg(CFBP)
T2A08 023:799.598 - 0.007ms returns 0x00000000
T0900 023:799.979 JLINK_HasError()
T2A08 024:373.251 JLINK_ReadMemEx(0x10053980, 0x3C Bytes, Flags = 0x02000000)
T2A08 024:373.290   CPU_ReadMem(64 bytes @ 0x10053980)
T2A08 024:373.934    -- Updating C cache (64 bytes @ 0x10053980)
T2A08 024:373.973    -- Read from C cache (60 bytes @ 0x10053980)
T2A08 024:373.999   Data:  EE F7 D6 FA 0F 48 F8 F7 FF FA 0F 48 ED F7 8A FE ...
T2A08 024:374.014 - 0.768ms returns 60 (0x3C)
T2A08 024:374.032 JLINK_ReadMemEx(0x10053980, 0x2 Bytes, Flags = 0x02000000)
T2A08 024:374.046    -- Read from C cache (2 bytes @ 0x10053980)
T2A08 024:374.061   Data:  EE F7
T2A08 024:374.076 - 0.049ms returns 2 (0x2)
T2A08 024:374.090 JLINK_ReadMemEx(0x10053982, 0x2 Bytes, Flags = 0x02000000)
T2A08 024:374.102    -- Read from C cache (2 bytes @ 0x10053982)
T2A08 024:374.117   Data:  D6 FA
T2A08 024:374.131 - 0.046ms returns 2 (0x2)
T2A08 024:374.146 JLINK_ReadMemEx(0x10053980, 0x2 Bytes, Flags = 0x02000000)
T2A08 024:374.158    -- Read from C cache (2 bytes @ 0x10053980)
T2A08 024:374.173   Data:  EE F7
T2A08 024:374.188 - 0.046ms returns 2 (0x2)
T2A08 024:374.200 JLINK_HasError()
T2A08 024:374.213 JLINK_SetBPEx(Addr = 0x10053984, Type = 0xFFFFFFF2)
T2A08 024:374.228 - 0.020ms returns 0x00000004
T2A08 024:374.241 JLINK_HasError()
T2A08 024:374.253 JLINK_HasError()
T2A08 024:374.265 JLINK_Go()
T2A08 024:374.583   CPU_ReadMem(4 bytes @ 0xE0001000)
T2A08 024:374.893   CPU_WriteMem(4 bytes @ 0xE0001000)
T2A08 024:374.911   CPU_WriteMem(4 bytes @ 0xE0002008)
T2A08 024:375.746 - 1.491ms
T2A08 024:476.005 JLINK_HasError()
T2A08 024:476.035 JLINK_IsHalted()
T2A08 024:477.861 - 1.841ms returns TRUE
T2A08 024:477.888 JLINK_HasError()
T2A08 024:477.894 JLINK_Halt()
T2A08 024:477.899 - 0.007ms returns 0x00
T2A08 024:477.907 JLINK_IsHalted()
T2A08 024:477.912 - 0.007ms returns TRUE
T2A08 024:477.918 JLINK_IsHalted()
T2A08 024:477.923 - 0.006ms returns TRUE
T2A08 024:477.992 JLINK_IsHalted()
T2A08 024:478.006 - 0.016ms returns TRUE
T2A08 024:478.015 JLINK_HasError()
T2A08 024:478.021 JLINK_ReadReg(R15 (PC))
T2A08 024:478.029 - 0.010ms returns 0x10053984
T2A08 024:478.035 JLINK_ReadReg(XPSR)
T2A08 024:478.040 - 0.007ms returns 0x61000000
T2A08 024:478.049 JLINK_HasError()
T2A08 024:478.055 JLINK_ClrBPEx(BPHandle = 0x00000004)
T2A08 024:478.060 - 0.008ms returns 0x00
T2A08 024:478.066 JLINK_HasError()
T2A08 024:478.071 JLINK_HasError()
T2A08 024:478.076 JLINK_ReadMemU32(0xE000ED30, 0x1 Items)
T2A08 024:478.087   CPU_ReadMem(4 bytes @ 0xE000ED30)
T2A08 024:478.399   Data:  02 00 00 00
T2A08 024:478.413 - 0.338ms returns 1 (0x1)
T2A08 024:478.420 JLINK_ReadMemU32(0xE0001028, 0x1 Items)
T2A08 024:478.429   CPU_ReadMem(4 bytes @ 0xE0001028)
T2A08 024:478.753   Data:  00 00 00 00
T2A08 024:478.766   Debug reg: DWT_FUNC[0]
T2A08 024:478.773 - 0.355ms returns 1 (0x1)
T2A08 024:478.780 JLINK_ReadMemU32(0xE0001038, 0x1 Items)
T2A08 024:478.789   CPU_ReadMem(4 bytes @ 0xE0001038)
T2A08 024:479.106   Data:  00 00 00 00
T2A08 024:479.119   Debug reg: DWT_FUNC[1]
T2A08 024:479.126 - 0.348ms returns 1 (0x1)
T2A08 024:479.292 JLINK_HasError()
T2A08 024:479.305 JLINK_ReadReg(R0)
T2A08 024:479.312 - 0.009ms returns 0xE000E000
T2A08 024:479.318 JLINK_ReadReg(R1)
T2A08 024:479.324 - 0.007ms returns 0x00000000
T2A08 024:479.329 JLINK_ReadReg(R2)
T2A08 024:479.334 - 0.007ms returns 0xC0C00000
T2A08 024:479.339 JLINK_ReadReg(R3)
T2A08 024:479.344 - 0.007ms returns 0x00000007
T2A08 024:479.349 JLINK_ReadReg(R4)
T2A08 024:479.354 - 0.007ms returns 0x1005739C
T2A08 024:479.360 JLINK_ReadReg(R5)
T2A08 024:479.365 - 0.007ms returns 0x00000001
T2A08 024:479.370 JLINK_ReadReg(R6)
T2A08 024:479.375 - 0.007ms returns 0x1005739C
T2A08 024:479.380 JLINK_ReadReg(R7)
T2A08 024:479.385 - 0.007ms returns 0xFFFFFFFF
T2A08 024:479.390 JLINK_ReadReg(R8)
T2A08 024:479.395 - 0.007ms returns 0xFFFFFFFF
T2A08 024:479.401 JLINK_ReadReg(R9)
T2A08 024:479.405 - 0.007ms returns 0xFFFFFFFF
T2A08 024:479.411 JLINK_ReadReg(R10)
T2A08 024:479.416 - 0.007ms returns 0xFFFFFFFF
T2A08 024:479.421 JLINK_ReadReg(R11)
T2A08 024:479.426 - 0.007ms returns 0xFFFFFFFF
T2A08 024:479.431 JLINK_ReadReg(R12)
T2A08 024:479.436 - 0.007ms returns 0xFFFFFFFF
T2A08 024:479.441 JLINK_ReadReg(R13 (SP))
T2A08 024:479.506 - 0.071ms returns 0x20006000
T2A08 024:479.516 JLINK_ReadReg(R14)
T2A08 024:479.521 - 0.007ms returns 0x10053985
T2A08 024:479.527 JLINK_ReadReg(R15 (PC))
T2A08 024:479.532 - 0.007ms returns 0x10053984
T2A08 024:479.537 JLINK_ReadReg(XPSR)
T2A08 024:479.542 - 0.007ms returns 0x61000000
T2A08 024:479.548 JLINK_ReadReg(MSP)
T2A08 024:479.553 - 0.007ms returns 0x20006000
T2A08 024:479.558 JLINK_ReadReg(PSP)
T2A08 024:479.563 - 0.007ms returns 0xFFFFFFFC
T2A08 024:479.569 JLINK_ReadReg(CFBP)
T2A08 024:479.573 - 0.007ms returns 0x00000000
T0900 024:480.044 JLINK_HasError()
T0900 024:482.500 JLINK_ReadMemEx(0x10053984, 0x3C Bytes, Flags = 0x02000000)
T0900 024:482.543   CPU_ReadMem(64 bytes @ 0x10053980)
T0900 024:483.127    -- Updating C cache (64 bytes @ 0x10053980)
T0900 024:483.141    -- Read from C cache (60 bytes @ 0x10053984)
T0900 024:483.149   Data:  0F 48 F8 F7 FF FA 0F 48 ED F7 8A FE 01 00 03 D0 ...
T0900 024:483.156 - 0.658ms returns 60 (0x3C)
T0900 024:483.163 JLINK_ReadMemEx(0x10053984, 0x2 Bytes, Flags = 0x02000000)
T0900 024:483.169    -- Read from C cache (2 bytes @ 0x10053984)
T0900 024:483.176   Data:  0F 48
T0900 024:483.183 - 0.021ms returns 2 (0x2)
T0900 024:483.189 JLINK_ReadMemEx(0x10053986, 0x2 Bytes, Flags = 0x02000000)
T0900 024:483.195    -- Read from C cache (2 bytes @ 0x10053986)
T0900 024:483.201   Data:  F8 F7
T0900 024:483.208 - 0.020ms returns 2 (0x2)
T0900 024:483.221 JLINK_ReadMemEx(0x10053986, 0x2 Bytes, Flags = 0x02000000)
T0900 024:483.226    -- Read from C cache (2 bytes @ 0x10053986)
T0900 024:483.233   Data:  F8 F7
T0900 024:483.240 - 0.020ms returns 2 (0x2)
T0900 024:483.245 JLINK_ReadMemEx(0x10053988, 0x3C Bytes, Flags = 0x02000000)
T0900 024:483.251   CPU_ReadMem(64 bytes @ 0x100539C0)
T0900 024:483.759    -- Updating C cache (64 bytes @ 0x100539C0)
T0900 024:483.772    -- Read from C cache (60 bytes @ 0x10053988)
T0900 024:483.780   Data:  FF FA 0F 48 ED F7 8A FE 01 00 03 D0 0D A0 F9 F7 ...
T0900 024:483.787 - 0.544ms returns 60 (0x3C)
T0900 024:483.794 JLINK_ReadMemEx(0x10053988, 0x2 Bytes, Flags = 0x02000000)
T0900 024:483.801    -- Read from C cache (2 bytes @ 0x10053988)
T0900 024:483.807   Data:  FF FA
T0900 024:483.814 - 0.021ms returns 2 (0x2)
T2A08 024:986.582 JLINK_ReadMemEx(0x10053984, 0x2 Bytes, Flags = 0x02000000)
T2A08 024:986.628    -- Read from C cache (2 bytes @ 0x10053984)
T2A08 024:986.645   Data:  0F 48
T2A08 024:986.661 - 0.085ms returns 2 (0x2)
T2A08 024:986.676 JLINK_HasError()
T2A08 024:986.693 JLINK_Step()
T2A08 024:987.020    -- Read from C cache (2 bytes @ 0x10053984)
T2A08 024:987.038   CPU_ReadMem(4 bytes @ 0xE000ED18)
T2A08 024:987.345   CPU_WriteMem(4 bytes @ 0xE000ED18)
T2A08 024:987.613   CPU_ReadMem(4 bytes @ 0xE000ED18)
T2A08 024:987.915   CPU_WriteMem(4 bytes @ 0xE000ED18)
T2A08 024:990.178   CPU_ReadMem(4 bytes @ 0xE0001004)
T2A08 024:990.482    -- Read from C cache (4 bytes @ 0x100539C4)
T2A08 024:990.505   -- Simulated
T2A08 024:990.512 - 3.821ms returns 0
T2A08 024:990.521 JLINK_HasError()
T2A08 024:990.528 JLINK_ReadReg(R15 (PC))
T2A08 024:990.536 - 0.010ms returns 0x10053986
T2A08 024:990.541 JLINK_ReadReg(XPSR)
T2A08 024:990.546 - 0.007ms returns 0x61000000
T2A08 024:990.561 JLINK_HasError()
T2A08 024:990.567 JLINK_SetBPEx(Addr = 0x1005398A, Type = 0xFFFFFFF2)
T2A08 024:990.574 - 0.008ms returns 0x00000005
T2A08 024:990.579 JLINK_HasError()
T2A08 024:990.584 JLINK_HasError()
T2A08 024:990.590 JLINK_Go()
T2A08 024:990.602   CPU_ReadMem(4 bytes @ 0xE0001000)
T2A08 024:990.889   CPU_WriteMem(4 bytes @ 0xE0001000)
T2A08 024:990.903   CPU_WriteMem(4 bytes @ 0xE0002008)
T2A08 024:991.401   CPU_WriteMem(4 bytes @ 0xE0001004)
T2A08 024:992.592 - 2.010ms
T2A08 025:093.043 JLINK_HasError()
T2A08 025:093.083 JLINK_IsHalted()
T2A08 025:095.074 - 2.021ms returns TRUE
T2A08 025:095.120 JLINK_HasError()
T2A08 025:095.138 JLINK_Halt()
T2A08 025:095.152 - 0.021ms returns 0x00
T2A08 025:095.168 JLINK_IsHalted()
T2A08 025:095.181 - 0.019ms returns TRUE
T2A08 025:095.250 JLINK_IsHalted()
T2A08 025:095.257 - 0.009ms returns TRUE
T2A08 025:095.263 JLINK_IsHalted()
T2A08 025:095.267 - 0.006ms returns TRUE
T2A08 025:095.274 JLINK_HasError()
T2A08 025:095.280 JLINK_ReadReg(R15 (PC))
T2A08 025:095.287 - 0.010ms returns 0x1005398A
T2A08 025:095.293 JLINK_ReadReg(XPSR)
T2A08 025:095.298 - 0.007ms returns 0x21000000
T2A08 025:095.307 JLINK_HasError()
T2A08 025:095.313 JLINK_ClrBPEx(BPHandle = 0x00000005)
T2A08 025:095.319 - 0.007ms returns 0x00
T2A08 025:095.324 JLINK_HasError()
T2A08 025:095.329 JLINK_HasError()
T2A08 025:095.335 JLINK_ReadMemU32(0xE000ED30, 0x1 Items)
T2A08 025:095.345   CPU_ReadMem(4 bytes @ 0xE000ED30)
T2A08 025:095.627   Data:  02 00 00 00
T2A08 025:095.640 - 0.308ms returns 1 (0x1)
T2A08 025:095.648 JLINK_ReadMemU32(0xE0001028, 0x1 Items)
T2A08 025:095.657   CPU_ReadMem(4 bytes @ 0xE0001028)
T2A08 025:095.950   Data:  00 00 00 00
T2A08 025:095.964   Debug reg: DWT_FUNC[0]
T2A08 025:095.970 - 0.324ms returns 1 (0x1)
T2A08 025:095.978 JLINK_ReadMemU32(0xE0001038, 0x1 Items)
T2A08 025:095.990   CPU_ReadMem(4 bytes @ 0xE0001038)
T2A08 025:096.290   Data:  00 00 00 00
T2A08 025:096.319   Debug reg: DWT_FUNC[1]
T2A08 025:096.334 - 0.361ms returns 1 (0x1)
T2A08 025:096.570 JLINK_HasError()
T2A08 025:096.598 JLINK_ReadReg(R0)
T2A08 025:096.614 - 0.021ms returns 0x00000010
T2A08 025:096.627 JLINK_ReadReg(R1)
T2A08 025:096.638 - 0.016ms returns 0x00000010
T2A08 025:096.650 JLINK_ReadReg(R2)
T2A08 025:096.662 - 0.016ms returns 0x40300020
T2A08 025:096.674 JLINK_ReadReg(R3)
T2A08 025:096.685 - 0.016ms returns 0x00010304
T2A08 025:096.697 JLINK_ReadReg(R4)
T2A08 025:096.708 - 0.016ms returns 0x1005739C
T2A08 025:096.720 JLINK_ReadReg(R5)
T2A08 025:096.731 - 0.016ms returns 0x00000001
T2A08 025:096.743 JLINK_ReadReg(R6)
T2A08 025:096.754 - 0.016ms returns 0x1005739C
T2A08 025:096.766 JLINK_ReadReg(R7)
T2A08 025:096.777 - 0.016ms returns 0xFFFFFFFF
T2A08 025:096.789 JLINK_ReadReg(R8)
T2A08 025:096.799 - 0.016ms returns 0xFFFFFFFF
T2A08 025:096.812 JLINK_ReadReg(R9)
T2A08 025:096.822 - 0.015ms returns 0xFFFFFFFF
T2A08 025:096.834 JLINK_ReadReg(R10)
T2A08 025:096.845 - 0.015ms returns 0xFFFFFFFF
T2A08 025:096.857 JLINK_ReadReg(R11)
T2A08 025:096.868 - 0.015ms returns 0xFFFFFFFF
T2A08 025:096.880 JLINK_ReadReg(R12)
T2A08 025:096.890 - 0.015ms returns 0xFFFFFFFF
T2A08 025:096.902 JLINK_ReadReg(R13 (SP))
T2A08 025:096.914 - 0.016ms returns 0x20006000
T2A08 025:096.926 JLINK_ReadReg(R14)
T2A08 025:096.936 - 0.016ms returns 0x1004C0A7
T2A08 025:096.948 JLINK_ReadReg(R15 (PC))
T2A08 025:096.959 - 0.016ms returns 0x1005398A
T2A08 025:096.971 JLINK_ReadReg(XPSR)
T2A08 025:096.987 - 0.020ms returns 0x21000000
T2A08 025:096.999 JLINK_ReadReg(MSP)
T2A08 025:097.010 - 0.016ms returns 0x20006000
T2A08 025:097.022 JLINK_ReadReg(PSP)
T2A08 025:097.033 - 0.016ms returns 0xFFFFFFFC
T2A08 025:097.045 JLINK_ReadReg(CFBP)
T2A08 025:097.056 - 0.016ms returns 0x00000000
T0900 025:097.440 JLINK_HasError()
T0900 025:100.407 JLINK_ReadMemEx(0x1005398A, 0x2 Bytes, Flags = 0x02000000)
T0900 025:100.431   CPU_ReadMem(64 bytes @ 0x10053980)
T0900 025:100.965    -- Updating C cache (64 bytes @ 0x10053980)
T0900 025:101.001    -- Read from C cache (2 bytes @ 0x1005398A)
T0900 025:101.018   Data:  0F 48
T0900 025:101.034 - 0.631ms returns 2 (0x2)
T0900 025:101.052 JLINK_ReadMemEx(0x1005398C, 0x3C Bytes, Flags = 0x02000000)
T0900 025:101.069   CPU_ReadMem(64 bytes @ 0x100539C0)
T0900 025:101.626    -- Updating C cache (64 bytes @ 0x100539C0)
T0900 025:101.664    -- Read from C cache (60 bytes @ 0x1005398C)
T0900 025:101.683   Data:  ED F7 8A FE 01 00 03 D0 0D A0 F9 F7 21 FB FE E7 ...
T0900 025:101.698 - 0.651ms returns 60 (0x3C)
T0900 025:101.717 JLINK_ReadMemEx(0x1005398C, 0x2 Bytes, Flags = 0x02000000)
T0900 025:101.731    -- Read from C cache (2 bytes @ 0x1005398C)
T0900 025:101.746   Data:  ED F7
T0900 025:101.762 - 0.050ms returns 2 (0x2)
T0900 025:101.804 JLINK_ReadMemEx(0x1005398C, 0x3C Bytes, Flags = 0x02000000)
T0900 025:101.822    -- Read from C cache (60 bytes @ 0x1005398C)
T0900 025:101.842   Data:  ED F7 8A FE 01 00 03 D0 0D A0 F9 F7 21 FB FE E7 ...
T0900 025:101.857 - 0.057ms returns 60 (0x3C)
T0900 025:101.868 JLINK_ReadMemEx(0x1005398C, 0x2 Bytes, Flags = 0x02000000)
T0900 025:101.880    -- Read from C cache (2 bytes @ 0x1005398C)
T0900 025:101.895   Data:  ED F7
T0900 025:101.909 - 0.046ms returns 2 (0x2)
T0900 025:101.922 JLINK_ReadMemEx(0x1005398E, 0x2 Bytes, Flags = 0x02000000)
T0900 025:101.933    -- Read from C cache (2 bytes @ 0x1005398E)
T0900 025:101.949   Data:  8A FE
T0900 025:101.963 - 0.046ms returns 2 (0x2)
T0900 025:101.994 JLINK_ReadMemEx(0x10053990, 0x3C Bytes, Flags = 0x02000000)
T0900 025:102.007    -- Read from C cache (60 bytes @ 0x10053990)
T0900 025:102.022   Data:  01 00 03 D0 0D A0 F9 F7 21 FB FE E7 18 A1 1A A0 ...
T0900 025:102.037 - 0.047ms returns 60 (0x3C)
T0900 025:102.049 JLINK_ReadMemEx(0x10053990, 0x2 Bytes, Flags = 0x02000000)
T0900 025:102.060    -- Read from C cache (2 bytes @ 0x10053990)
T0900 025:102.075   Data:  01 00
T0900 025:102.089 - 0.045ms returns 2 (0x2)
T0900 025:102.101 JLINK_ReadMemEx(0x10053992, 0x2 Bytes, Flags = 0x02000000)
T0900 025:102.113    -- Read from C cache (2 bytes @ 0x10053992)
T0900 025:102.127   Data:  03 D0
T0900 025:102.142 - 0.045ms returns 2 (0x2)
T2A08 026:272.774 JLINK_ReadMemEx(0x1005398A, 0x2 Bytes, Flags = 0x02000000)
T2A08 026:272.815    -- Read from C cache (2 bytes @ 0x1005398A)
T2A08 026:272.833   Data:  0F 48
T2A08 026:272.849 - 0.080ms returns 2 (0x2)
T2A08 026:272.863 JLINK_HasError()
T2A08 026:272.879 JLINK_Step()
T2A08 026:273.247    -- Read from C cache (2 bytes @ 0x1005398A)
T2A08 026:273.283   CPU_ReadMem(4 bytes @ 0xE0001004)
T2A08 026:273.580    -- Read from C cache (4 bytes @ 0x100539C8)
T2A08 026:273.595   -- Simulated
T2A08 026:273.602 - 0.725ms returns 0
T2A08 026:273.611 JLINK_HasError()
T2A08 026:273.617 JLINK_ReadReg(R15 (PC))
T2A08 026:273.624 - 0.009ms returns 0x1005398C
T2A08 026:273.630 JLINK_ReadReg(XPSR)
T2A08 026:273.635 - 0.007ms returns 0x21000000
T2A08 026:273.652 JLINK_HasError()
T2A08 026:273.658 JLINK_SetBPEx(Addr = 0x10053990, Type = 0xFFFFFFF2)
T2A08 026:273.664 - 0.008ms returns 0x00000006
T2A08 026:273.670 JLINK_HasError()
T2A08 026:273.675 JLINK_HasError()
T2A08 026:273.680 JLINK_Go()
T2A08 026:273.694   CPU_ReadMem(4 bytes @ 0xE0001000)
T2A08 026:273.989   CPU_WriteMem(4 bytes @ 0xE0001000)
T2A08 026:274.004   CPU_WriteMem(4 bytes @ 0xE0002008)
T2A08 026:274.413   CPU_WriteMem(4 bytes @ 0xE0001004)
T2A08 026:275.413 - 1.745ms
T2A08 026:375.519 JLINK_HasError()
T2A08 026:375.558 JLINK_IsHalted()
T2A08 026:377.570 - 2.035ms returns TRUE
T2A08 026:377.606 JLINK_HasError()
T2A08 026:377.619 JLINK_Halt()
T2A08 026:377.630 - 0.016ms returns 0x00
T2A08 026:377.643 JLINK_IsHalted()
T2A08 026:377.653 - 0.011ms returns TRUE
T2A08 026:377.658 JLINK_IsHalted()
T2A08 026:377.663 - 0.006ms returns TRUE
T2A08 026:377.668 JLINK_IsHalted()
T2A08 026:377.673 - 0.007ms returns TRUE
T2A08 026:377.680 JLINK_HasError()
T2A08 026:377.686 JLINK_ReadReg(R15 (PC))
T2A08 026:377.695 - 0.011ms returns 0x10053990
T2A08 026:377.701 JLINK_ReadReg(XPSR)
T2A08 026:377.706 - 0.007ms returns 0x21000000
T2A08 026:377.715 JLINK_HasError()
T2A08 026:377.720 JLINK_ClrBPEx(BPHandle = 0x00000006)
T2A08 026:377.726 - 0.007ms returns 0x00
T2A08 026:377.731 JLINK_HasError()
T2A08 026:377.737 JLINK_HasError()
T2A08 026:377.742 JLINK_ReadMemU32(0xE000ED30, 0x1 Items)
T2A08 026:377.752   CPU_ReadMem(4 bytes @ 0xE000ED30)
T2A08 026:378.070   Data:  02 00 00 00
T2A08 026:378.083 - 0.343ms returns 1 (0x1)
T2A08 026:378.091 JLINK_ReadMemU32(0xE0001028, 0x1 Items)
T2A08 026:378.100   CPU_ReadMem(4 bytes @ 0xE0001028)
T2A08 026:378.417   Data:  00 00 00 00
T2A08 026:378.430   Debug reg: DWT_FUNC[0]
T2A08 026:378.437 - 0.348ms returns 1 (0x1)
T2A08 026:378.444 JLINK_ReadMemU32(0xE0001038, 0x1 Items)
T2A08 026:378.453   CPU_ReadMem(4 bytes @ 0xE0001038)
T2A08 026:378.802   Data:  00 00 00 00
T2A08 026:378.839   Debug reg: DWT_FUNC[1]
T2A08 026:378.854 - 0.415ms returns 1 (0x1)
T2A08 026:378.879 JLINK_ReadMemEx(0x1005398E, 0x2 Bytes, Flags = 0x02000000)
T2A08 026:378.900   CPU_ReadMem(64 bytes @ 0x10053980)
T2A08 026:379.471    -- Updating C cache (64 bytes @ 0x10053980)
T2A08 026:379.507    -- Read from C cache (2 bytes @ 0x1005398E)
T2A08 026:379.523   Data:  8A FE
T2A08 026:379.539 - 0.664ms returns 2 (0x2)
T2A08 026:379.557 JLINK_ReadMemEx(0x10053990, 0x3C Bytes, Flags = 0x02000000)
T2A08 026:379.573   CPU_ReadMem(64 bytes @ 0x100539C0)
T2A08 026:380.082    -- Updating C cache (64 bytes @ 0x100539C0)
T2A08 026:380.096    -- Read from C cache (60 bytes @ 0x10053990)
T2A08 026:380.104   Data:  01 00 03 D0 0D A0 F9 F7 21 FB FE E7 18 A1 1A A0 ...
T2A08 026:380.111 - 0.556ms returns 60 (0x3C)
T2A08 026:380.118 JLINK_ReadMemEx(0x10053990, 0x2 Bytes, Flags = 0x02000000)
T2A08 026:380.124    -- Read from C cache (2 bytes @ 0x10053990)
T2A08 026:380.131   Data:  01 00
T2A08 026:380.137 - 0.021ms returns 2 (0x2)
T2A08 026:380.145 JLINK_HasError()
T2A08 026:380.151 JLINK_Step()
T2A08 026:380.158    -- Read from C cache (2 bytes @ 0x10053990)
T2A08 026:380.166   CPU_ReadMem(4 bytes @ 0xE0001004)
T2A08 026:380.452   -- Simulated
T2A08 026:380.465 - 0.316ms returns 0
T2A08 026:380.473 JLINK_HasError()
T2A08 026:380.479 JLINK_ReadReg(R15 (PC))
T2A08 026:380.485 - 0.009ms returns 0x10053992
T2A08 026:380.495 JLINK_ReadReg(XPSR)
T2A08 026:380.500 - 0.007ms returns 0x61000000
T2A08 026:380.763 JLINK_HasError()
T2A08 026:380.777 JLINK_ReadReg(R0)
T2A08 026:380.784 - 0.010ms returns 0x00000000
T2A08 026:380.790 JLINK_ReadReg(R1)
T2A08 026:380.795 - 0.007ms returns 0x00000000
T2A08 026:380.801 JLINK_ReadReg(R2)
T2A08 026:380.806 - 0.007ms returns 0x00000000
T2A08 026:380.811 JLINK_ReadReg(R3)
T2A08 026:380.816 - 0.007ms returns 0x00000001
T2A08 026:380.821 JLINK_ReadReg(R4)
T2A08 026:380.826 - 0.007ms returns 0x1005739C
T2A08 026:380.831 JLINK_ReadReg(R5)
T2A08 026:380.836 - 0.007ms returns 0x00000001
T2A08 026:380.842 JLINK_ReadReg(R6)
T2A08 026:380.846 - 0.007ms returns 0x1005739C
T2A08 026:380.852 JLINK_ReadReg(R7)
T2A08 026:380.857 - 0.007ms returns 0xFFFFFFFF
T2A08 026:380.862 JLINK_ReadReg(R8)
T2A08 026:380.867 - 0.007ms returns 0xFFFFFFFF
T2A08 026:380.872 JLINK_ReadReg(R9)
T2A08 026:380.877 - 0.007ms returns 0xFFFFFFFF
T2A08 026:380.883 JLINK_ReadReg(R10)
T2A08 026:380.888 - 0.007ms returns 0xFFFFFFFF
T2A08 026:380.893 JLINK_ReadReg(R11)
T2A08 026:380.898 - 0.007ms returns 0xFFFFFFFF
T2A08 026:380.903 JLINK_ReadReg(R12)
T2A08 026:380.908 - 0.007ms returns 0xFFFFFFFF
T2A08 026:380.914 JLINK_ReadReg(R13 (SP))
T2A08 026:380.919 - 0.007ms returns 0x20006000
T2A08 026:380.924 JLINK_ReadReg(R14)
T2A08 026:380.929 - 0.007ms returns 0x100418F9
T2A08 026:380.934 JLINK_ReadReg(R15 (PC))
T2A08 026:380.939 - 0.007ms returns 0x10053992
T2A08 026:380.945 JLINK_ReadReg(XPSR)
T2A08 026:380.949 - 0.007ms returns 0x61000000
T2A08 026:380.955 JLINK_ReadReg(MSP)
T2A08 026:380.959 - 0.007ms returns 0x20006000
T2A08 026:380.965 JLINK_ReadReg(PSP)
T2A08 026:380.970 - 0.007ms returns 0xFFFFFFFC
T2A08 026:380.975 JLINK_ReadReg(CFBP)
T2A08 026:380.980 - 0.007ms returns 0x00000000
T0900 026:381.775 JLINK_HasError()
T0900 026:384.645 JLINK_ReadMemEx(0x10053992, 0x2 Bytes, Flags = 0x02000000)
T0900 026:384.673    -- Read from C cache (2 bytes @ 0x10053992)
T0900 026:384.681   Data:  03 D0
T0900 026:384.688 - 0.045ms returns 2 (0x2)
T0900 026:384.695 JLINK_ReadMemEx(0x10053994, 0x3C Bytes, Flags = 0x02000000)
T0900 026:384.700    -- Read from C cache (60 bytes @ 0x10053994)
T0900 026:384.707   Data:  0D A0 F9 F7 21 FB FE E7 18 A1 1A A0 F9 F7 1C FB ...
T0900 026:384.714 - 0.021ms returns 60 (0x3C)
T0900 026:384.719 JLINK_ReadMemEx(0x10053994, 0x2 Bytes, Flags = 0x02000000)
T0900 026:384.724    -- Read from C cache (2 bytes @ 0x10053994)
T0900 026:384.731   Data:  0D A0
T0900 026:384.737 - 0.020ms returns 2 (0x2)
T0900 026:384.796 JLINK_ReadMemEx(0x10053994, 0x3C Bytes, Flags = 0x02000000)
T0900 026:384.808    -- Read from C cache (60 bytes @ 0x10053994)
T0900 026:384.819   Data:  0D A0 F9 F7 21 FB FE E7 18 A1 1A A0 F9 F7 1C FB ...
T0900 026:384.825 - 0.031ms returns 60 (0x3C)
T0900 026:384.830 JLINK_ReadMemEx(0x10053994, 0x2 Bytes, Flags = 0x02000000)
T0900 026:384.836    -- Read from C cache (2 bytes @ 0x10053994)
T0900 026:384.842   Data:  0D A0
T0900 026:384.849 - 0.020ms returns 2 (0x2)
T0900 026:384.854 JLINK_ReadMemEx(0x10053996, 0x2 Bytes, Flags = 0x02000000)
T0900 026:384.859    -- Read from C cache (2 bytes @ 0x10053996)
T0900 026:384.866   Data:  F9 F7
T0900 026:384.872 - 0.020ms returns 2 (0x2)
T0900 026:384.881 JLINK_ReadMemEx(0x10053996, 0x2 Bytes, Flags = 0x02000000)
T0900 026:384.886    -- Read from C cache (2 bytes @ 0x10053996)
T0900 026:384.893   Data:  F9 F7
T0900 026:384.900 - 0.020ms returns 2 (0x2)
T0900 026:384.905 JLINK_ReadMemEx(0x10053998, 0x3C Bytes, Flags = 0x02000000)
T0900 026:384.910    -- Read from C cache (60 bytes @ 0x10053998)
T0900 026:384.917   Data:  21 FB FE E7 18 A1 1A A0 F9 F7 1C FB EE F7 44 F8 ...
T0900 026:384.923 - 0.020ms returns 60 (0x3C)
T0900 026:384.929 JLINK_ReadMemEx(0x10053998, 0x2 Bytes, Flags = 0x02000000)
T0900 026:384.934    -- Read from C cache (2 bytes @ 0x10053998)
T0900 026:384.940   Data:  21 FB
T0900 026:384.947 - 0.020ms returns 2 (0x2)
T2A08 026:794.318 JLINK_ReadMemEx(0x10053992, 0x2 Bytes, Flags = 0x02000000)
T2A08 026:794.352    -- Read from C cache (2 bytes @ 0x10053992)
T2A08 026:794.360   Data:  03 D0
T2A08 026:794.368 - 0.051ms returns 2 (0x2)
T2A08 026:794.375 JLINK_HasError()
T2A08 026:794.384 JLINK_Step()
T2A08 026:794.395    -- Read from C cache (2 bytes @ 0x10053992)
T2A08 026:794.405   -- Simulated
T2A08 026:794.411 - 0.029ms returns 0
T2A08 026:794.417 JLINK_HasError()
